#H
SOURCE='ADVANCED ANALYSIS OPTIMIZER' VERSION='PROG_VERSION_STR'
TITLE='** CSDF File generated from Infile_withX.csv **'
TIME='13:10:56' DATE='06/17/2023' TEMPERATURE='27'
ANALYSIS='DC Sweep' SERIALNO=''
COMPLEXVALUES='NO' NODES='2'
SWEEPVAR='Column_0' SWEEPMODE='VAR_STEP'
XBEGIN='1.000000e+00' XEND='2.400000e+01'
FORMAT='0 VOLTSorAMPS;EFLOAT : NODEorBRANCH;NODE '
#N
'"Column_1"' '"Column_2"' 
#C 1 2 
11.000000000000 0.17046979900000 
#C 2 2 
11.000000000000 0.16644295300000 
#C 3 2 
11.000000000000 0.16510067100000 
#C 4 2 
11.000000000000 0.16644295300000 
#C 5 2 
11.000000000000 0.16778523500000 
#C 6 2 
11.000000000000 0.17583892600000 
#C 7 2 
11.000000000000 0.20939597300000 
#C 8 2 
12.000000000000 0.24295302000000 
#C 9 2 
12.000000000000 0.26711409400000 
#C 10 2 
12.000000000000 0.22684563800000 
#C 11 2 
12.000000000000 0.21610738300000 
#C 12 2 
13.000000000000 0.20268456400000 
#C 13 2 
15.000000000000 0.18926174500000 
#C 14 2 
16.000000000000 0.18255033600000 
#C 15 2 
16.000000000000 0.18255033600000 
#C 16 2 
16.000000000000 0.19463087200000 
#C 17 2 
16.000000000000 0.20000000000000 
#C 18 2 
17.000000000000 0.26308724800000 
#C 19 2 
17.000000000000 0.27382550300000 
#C 20 2 
17.000000000000 0.30201342300000 
#C 21 2 
17.000000000000 0.28456375800000 
#C 22 2 
16.000000000000 0.20536912800000 
#C 23 2 
15.000000000000 0.20000000000000 
#C 24 2 
14.000000000000 0.18523489900000 
#;
